T3D94 823:141.000   SEGGER J-Link V7.82a Log File
T3D94 823:141.069   DLL Compiled: Oct 31 2022 11:15:01
T3D94 823:141.079   Logging started @ 2022-11-08 06:15
T3D94 823:141.087 - 9546.214ms
T3D94 823:141.103 JLINK_SetWarnOutHandler(...)
T3D94 823:141.111 - 0.012ms
T3D94 823:141.122 JLINK_OpenEx(...)
T3D94 823:143.250   Firmware: J-Link V9 compiled May  7 2021 16:26:12
T3D94 823:143.846   Firmware: J-Link V9 compiled May  7 2021 16:26:12
T3D94 823:144.048   Decompressing FW timestamp took 161 us
T3D94 823:152.119   Hardware: V9.60
T3D94 823:152.152   S/N: 69663178
T3D94 823:152.168   OEM: SEGGER
T3D94 823:152.181   Feature(s): RDI, GDB, FlashDL, FlashBP, JFlash
T3D94 823:154.134   TELNET listener socket opened on port 19021
T3D94 823:160.081   WEBSRV WEBSRV_Init(): Starting webserver thread(s)
T3D94 823:160.296   WEBSRV Webserver running on local port 19080
T3D94 823:173.968 - 32.872ms returns "O.K."
T3D94 823:174.025 JLINK_GetEmuCaps()
T3D94 823:174.036 - 0.015ms returns 0xB9FF7BBF
T3D94 823:174.050 JLINK_TIF_GetAvailable(...)
T3D94 823:174.584 - 0.547ms
T3D94 823:174.621 JLINK_SetErrorOutHandler(...)
T3D94 823:174.632 - 0.015ms
T3D94 823:175.208 JLINK_ExecCommand("ProjectFile = "F:\仪表文件\LS\光纤光栅\短波长光栅模块\程序\Laser20221021\MDK-ARM\JLinkSettings.ini"", ...). 
T3D94 823:178.035 - 2.838ms returns 0x00
T3D94 823:182.886 JLINK_ExecCommand("Device = STM32H750VBTx", ...). 
T3D94 823:183.311   Flash bank @ 0x90000000: SFL: Parsing sectorization info from ELF file
T3D94 823:183.328     FlashDevice.SectorInfo[0]: .SectorSize = 0x00010000, .SectorStartAddr = 0x00000000
T3D94 823:183.344   OFL: Init() N/A
T3D94 823:183.356   OFL: UnInit() N/A
T3D94 823:183.368   OFL: EraseSector() N/A
T3D94 823:183.378   OFL: ProgramPage() N/A
T3D94 823:183.389   OFL: EraseChip() N/A
T3D94 823:183.400   OFL: BlankCheck() N/A
T3D94 823:183.411   OFL: Verify() N/A
T3D94 823:183.423   OFL: SEGGER_FL_Erase() present @ offset 0x000005F9
T3D94 823:183.434   OFL: SEGGER_FL_Program() present @ offset 0x000005D5
T3D94 823:183.445   OFL: SEGGER_FL_Read() N/A
T3D94 823:183.456   OFL: SEGGER_OPEN_Read() N/A
T3D94 823:183.467   OFL: SEGGER_FL_CalcCRC() present @ offset 0x00000629
T3D94 823:183.478   OFL: SEGGER_FL_Start() present @ offset 0x00000641
T3D94 823:183.499   OFL: SEGGER_FL_GetFlashInfo() present @ offset 0x000001CD
T3D94 823:183.510   OFL: SEGGER_FL_Verify() N/A
T3D94 823:183.538   OFL: SEGGER_FL_CheckBlank() present @ offset 0x00000615
T3D94 823:183.549   OFL: SEGGER_FL_Prepare() present @ offset 0x00000301
T3D94 823:183.560   OFL: SEGGER_FL_Restore() present @ offset 0x000004E5
T3D94 823:183.571   OFL: SEGGER_FL_EraseChip() N/A
T3D94 823:195.212   Device "STM32H750VB" selected.
T3D94 823:195.813 - 12.917ms returns 0x00
T3D94 823:195.839 JLINK_ExecCommand("DisableConnectionTimeout", ...). 
T3D94 823:195.855 - 0.008ms returns 0x01
T3D94 823:195.889 JLINK_GetHardwareVersion()
T3D94 823:195.899 - 0.013ms returns 96000
T3D94 823:195.911 JLINK_GetDLLVersion()
T3D94 823:195.919 - 0.012ms returns 78201
T3D94 823:195.931 JLINK_GetOEMString(...)
T3D94 823:195.943 JLINK_GetFirmwareString(...)
T3D94 823:195.951 - 0.011ms
T3D94 823:210.700 JLINK_GetDLLVersion()
T3D94 823:210.729 - 0.034ms returns 78201
T3D94 823:210.752 JLINK_GetCompileDateTime()
T3D94 823:210.761 - 0.013ms
T3D94 823:215.941 JLINK_GetFirmwareString(...)
T3D94 823:215.976 - 0.040ms
T3D94 823:220.762 JLINK_GetHardwareVersion()
T3D94 823:220.795 - 0.037ms returns 96000
T3D94 823:228.106 JLINK_GetSN()
T3D94 823:228.134 - 0.032ms returns 69663178
T3D94 823:233.314 JLINK_GetOEMString(...)
T3D94 823:243.421 JLINK_TIF_Select(JLINKARM_TIF_SWD)
T3D94 823:244.859 - 1.456ms returns 0x00
T3D94 823:244.899 JLINK_HasError()
T3D94 823:244.920 JLINK_SetSpeed(5000)
T3D94 823:245.220 - 0.311ms
T3D94 823:245.247 JLINK_GetId()
T3D94 823:249.914   ConfigTargetSettings() start
T3D94 823:249.938    J-Link Script File: Executing ConfigTargetSettings()
T3D94 823:254.430   ConfigTargetSettings() end
T3D94 823:259.730   Found SW-DP with ID 0x6BA02477
T3D94 823:295.354   Found SW-DP with ID 0x6BA02477
T3D94 823:303.749   DPIDR: 0x6BA02477
T3D94 823:307.885   CoreSight SoC-400 or earlier
T3D94 823:312.621   Scanning AP map to find all available APs
T3D94 823:318.832   AP[3]: Stopped AP scan as end of AP map has been reached
T3D94 823:322.611   AP[0]: AHB-AP (IDR: 0x84770001)
T3D94 823:326.502   AP[1]: AHB-AP (IDR: 0x84770001)
T3D94 823:330.621   AP[2]: APB-AP (IDR: 0x54770002)
T3D94 823:334.938   Iterating through AP map to find AHB-AP to use
T3D94 823:340.302   AP[0]: Core found
T3D94 823:344.085   AP[0]: AHB-AP ROM base: 0xE00FE000
T3D94 823:348.931   CPUID register: 0x411FC271. Implementer code: 0x41 (ARM)
T3D94 823:354.504   Found Cortex-M7 r1p1, Little endian.
T3D94 823:355.278   -- Max. mem block: 0x00010C40
T3D94 823:356.248   CPU_ReadMem(4 bytes @ 0xE000EDF0)
T3D94 823:356.862   CPU_ReadMem(4 bytes @ 0xE0002000)
T3D94 823:361.319   FPUnit: 8 code (BP) slots and 0 literal slots
T3D94 823:361.370   CPU_ReadMem(4 bytes @ 0xE000EDFC)
T3D94 823:361.912   CPU_WriteMem(4 bytes @ 0xE000EDFC)
T3D94 823:362.383   CPU_ReadMem(4 bytes @ 0xE0001000)
T3D94 823:362.998   CPU_WriteMem(4 bytes @ 0xE0001000)
T3D94 823:363.490   CPU_ReadMem(4 bytes @ 0xE000ED88)
T3D94 823:363.999   CPU_WriteMem(4 bytes @ 0xE000ED88)
T3D94 823:364.624   CPU_ReadMem(4 bytes @ 0xE000ED88)
T3D94 823:365.119   CPU_WriteMem(4 bytes @ 0xE000ED88)
T3D94 823:370.342   CoreSight components:
T3D94 823:374.587   ROMTbl[0] @ E00FE000
T3D94 823:374.617   CPU_ReadMem(64 bytes @ 0xE00FE000)
T3D94 823:375.512   CPU_ReadMem(32 bytes @ 0xE00FFFE0)
T3D94 823:380.157   [0][0]: E00FF000 CID B105100D PID 000BB4C7 ROM Table
T3D94 823:384.478   ROMTbl[1] @ E00FF000
T3D94 823:384.506   CPU_ReadMem(64 bytes @ 0xE00FF000)
T3D94 823:385.390   CPU_ReadMem(32 bytes @ 0xE000EFE0)
T3D94 823:390.095   [1][0]: E000E000 CID B105E00D PID 000BB00C SCS-M7
T3D94 823:390.117   CPU_ReadMem(32 bytes @ 0xE0001FE0)
T3D94 823:394.950   [1][1]: E0001000 CID B105E00D PID 000BB002 DWT
T3D94 823:394.977   CPU_ReadMem(32 bytes @ 0xE0002FE0)
T3D94 823:399.916   [1][2]: E0002000 CID B105E00D PID 000BB00E FPB-M7
T3D94 823:399.958   CPU_ReadMem(32 bytes @ 0xE0000FE0)
T3D94 823:404.322   [1][3]: E0000000 CID B105E00D PID 000BB001 ITM
T3D94 823:404.346   CPU_ReadMem(32 bytes @ 0xE0041FE0)
T3D94 823:408.888   [0][1]: E0041000 CID B105900D PID 001BB975 ETM-M7
T3D94 823:408.911   CPU_ReadMem(32 bytes @ 0xE0043FE0)
T3D94 823:414.285   [0][2]: E0043000 CID B105900D PID 004BB906 CTI
T3D94 823:414.323   CPU_ReadMem(4 bytes @ 0xE000ED78)
T3D94 823:419.692   Cache: Separate I- and D-cache.
T3D94 823:419.715   CPU_WriteMem(4 bytes @ 0xE000ED84)
T3D94 823:420.166   CPU_ReadMem(4 bytes @ 0xE000ED80)
T3D94 823:424.484   I-Cache L1: 16 KB, 256 Sets, 32 Bytes/Line, 2-Way
T3D94 823:424.504   CPU_WriteMem(4 bytes @ 0xE000ED84)
T3D94 823:425.137   CPU_ReadMem(4 bytes @ 0xE000ED80)
T3D94 823:429.780   D-Cache L1: 16 KB, 128 Sets, 32 Bytes/Line, 4-Way
T3D94 823:430.289 - 185.059ms returns 0x6BA02477
T3D94 823:430.326 JLINK_GetDLLVersion()
T3D94 823:430.339 - 0.019ms returns 78201
T3D94 823:430.429 JLINK_CORE_GetFound()
T3D94 823:430.447 - 0.024ms returns 0xE0100FF
T3D94 823:430.469 JLINK_GetDebugInfo(0x100 = JLINKARM_ROM_TABLE_ADDR_INDEX)
T3D94 823:430.484   Value=0xE00FE000
T3D94 823:430.498 - 0.033ms returns 0
T3D94 823:435.570 JLINK_GetDebugInfo(0x100 = JLINKARM_ROM_TABLE_ADDR_INDEX)
T3D94 823:435.603   Value=0xE00FE000
T3D94 823:435.623 - 0.057ms returns 0
T3D94 823:435.633 JLINK_GetDebugInfo(0x101 = JLINKARM_DEBUG_INFO_ETM_ADDR_INDEX)
T3D94 823:435.641   Value=0xE0041000
T3D94 823:435.651 - 0.021ms returns 0
T3D94 823:435.669 JLINK_ReadMemEx(0xE0041FD0, 0x20 Bytes, Flags = 0x02000004)
T3D94 823:435.691   CPU_ReadMem(32 bytes @ 0xE0041FD0)
T3D94 823:436.271   Data:  04 00 00 00 00 00 00 00 00 00 00 00 00 00 00 00 ...
T3D94 823:436.287 - 0.621ms returns 32 (0x20)
T3D94 823:436.299 JLINK_GetDebugInfo(0x102 = JLINKARM_DEBUG_INFO_MTB_ADDR_INDEX)
T3D94 823:436.307   Value=0x00000000
T3D94 823:436.318 - 0.028ms returns 0
T3D94 823:436.338 JLINK_GetDebugInfo(0x103 = JLINKARM_DEBUG_INFO_TPIU_ADDR_INDEX)
T3D94 823:436.347   Value=0xE00F5000
T3D94 823:436.357 - 0.022ms returns 0
T3D94 823:436.366 JLINK_GetDebugInfo(0x104 = JLINKARM_DEBUG_INFO_ITM_ADDR_INDEX)
T3D94 823:436.374   Value=0xE0000000
T3D94 823:436.384 - 0.021ms returns 0
T3D94 823:436.393 JLINK_GetDebugInfo(0x105 = JLINKARM_DEBUG_INFO_DWT_ADDR_INDEX)
T3D94 823:436.401   Value=0xE0001000
T3D94 823:436.411 - 0.021ms returns 0
T3D94 823:436.420 JLINK_GetDebugInfo(0x106 = JLINKARM_DEBUG_INFO_FPB_ADDR_INDEX)
T3D94 823:436.428   Value=0xE0002000
T3D94 823:436.438 - 0.021ms returns 0
T3D94 823:436.447 JLINK_GetDebugInfo(0x107 = JLINKARM_DEBUG_INFO_NVIC_ADDR_INDEX)
T3D94 823:436.454   Value=0xE000E000
T3D94 823:436.465 - 0.021ms returns 0
T3D94 823:436.474 JLINK_GetDebugInfo(0x10C = JLINKARM_DEBUG_INFO_DBG_ADDR_INDEX)
T3D94 823:436.481   Value=0xE000EDF0
T3D94 823:436.491 - 0.021ms returns 0
T3D94 823:436.501 JLINK_GetDebugInfo(0x01 = Unknown)
T3D94 823:436.508   Value=0x00000001
T3D94 823:436.519 - 0.021ms returns 0
T3D94 823:436.532 JLINK_ReadMemU32(0xE000ED00, 0x1 Items)
T3D94 823:436.545   CPU_ReadMem(4 bytes @ 0xE000ED00)
T3D94 823:436.995   Data:  71 C2 1F 41
T3D94 823:437.010   Debug reg: CPUID
T3D94 823:437.021 - 0.492ms returns 1 (0x1)
T3D94 823:437.032 JLINK_GetDebugInfo(0x10F = JLINKARM_DEBUG_INFO_HAS_CORTEX_M_SECURITY_EXT_INDEX)
T3D94 823:437.040   Value=0x00000000
T3D94 823:437.051 - 0.022ms returns 0
T3D94 823:437.060 JLINK_HasError()
T3D94 823:437.074 JLINK_SetResetType(JLINKARM_CM3_RESET_TYPE_NORMAL)
T3D94 823:437.082 - 0.012ms returns JLINKARM_CM3_RESET_TYPE_NORMAL
T3D94 823:437.093 JLINK_Reset()
T3D94 823:437.105   CPU is running
T3D94 823:437.118   CPU_WriteMem(4 bytes @ 0xE000EDF0)
T3D94 823:437.611   CPU is running
T3D94 823:437.636   CPU_WriteMem(4 bytes @ 0xE000EDFC)
T3D94 823:442.019   Reset: Halt core after reset via DEMCR.VC_CORERESET.
T3D94 823:448.899   Reset: Reset device via AIRCR.SYSRESETREQ.
T3D94 823:448.931   CPU is running
T3D94 823:448.949   CPU_WriteMem(4 bytes @ 0xE000ED0C)
T3D94 823:502.265   CPU_ReadMem(4 bytes @ 0xE000EDF0)
T3D94 823:502.916   CPU_ReadMem(4 bytes @ 0xE000EDF0)
T3D94 823:503.391   CPU is running
T3D94 823:503.421   CPU_WriteMem(4 bytes @ 0xE000EDF0)
T3D94 823:504.011   CPU is running
T3D94 823:504.032   CPU_WriteMem(4 bytes @ 0xE000EDFC)
T3D94 823:510.239   CPU_ReadMem(4 bytes @ 0xE000EDF0)
T3D94 823:513.271   CPU_WriteMem(4 bytes @ 0xE0002000)
T3D94 823:513.882   CPU_ReadMem(4 bytes @ 0xE000EDFC)
T3D94 823:514.382   CPU_ReadMem(4 bytes @ 0xE0001000)
T3D94 823:515.011 - 77.927ms
T3D94 823:515.113 JLINK_Halt()
T3D94 823:515.129 - 0.021ms returns 0x00
T3D94 823:515.144 JLINK_ReadMemU32(0xE000EDF0, 0x1 Items)
T3D94 823:515.166   CPU_ReadMem(4 bytes @ 0xE000EDF0)
T3D94 823:515.631   Data:  03 00 03 00
T3D94 823:515.652   Debug reg: DHCSR
T3D94 823:515.667 - 0.528ms returns 1 (0x1)
T3D94 823:515.687 JLINK_WriteU32_64(0xE000EDF0, 0xA05F0003)
T3D94 823:515.697   Debug reg: DHCSR
T3D94 823:516.147   CPU_WriteMem(4 bytes @ 0xE000EDF0)
T3D94 823:516.632 - 0.954ms returns 0 (0x00000000)
T3D94 823:516.652 JLINK_WriteU32_64(0xE000EDFC, 0x01000000)
T3D94 823:516.664   Debug reg: DEMCR
T3D94 823:516.685   CPU_WriteMem(4 bytes @ 0xE000EDFC)
T3D94 823:517.131 - 0.488ms returns 0 (0x00000000)
T3D94 823:535.436 JLINK_GetHWStatus(...)
T3D94 823:535.889 - 0.463ms returns 0
T3D94 823:548.700 JLINK_GetNumBPUnits(Type = 0xFFFFFF00)
T3D94 823:548.730 - 0.035ms returns 0x08
T3D94 823:548.742 JLINK_GetNumBPUnits(Type = 0xF0)
T3D94 823:548.751 - 0.013ms returns 0x2000
T3D94 823:548.763 JLINK_GetNumWPUnits()
T3D94 823:548.772 - 0.012ms returns 4
T3D94 823:564.744 JLINK_GetSpeed()
T3D94 823:564.776 - 0.037ms returns 4000
T3D94 823:573.975 JLINK_ReadMemU32(0xE000E004, 0x1 Items)
T3D94 823:574.016   CPU_ReadMem(4 bytes @ 0xE000E004)
T3D94 823:574.491   Data:  04 00 00 00
T3D94 823:574.514 - 0.545ms returns 1 (0x1)
T3D94 823:574.531 JLINK_ReadMemU32(0xE000E004, 0x1 Items)
T3D94 823:574.556   CPU_ReadMem(4 bytes @ 0xE000E004)
T3D94 823:575.017   Data:  04 00 00 00
T3D94 823:575.038 - 0.512ms returns 1 (0x1)
T3D94 823:575.064 JLINK_WriteMemEx(0xE0001000, 0x0000001C Bytes, Flags = 0x02000004)
T3D94 823:575.077   Data:  01 00 00 00 00 00 00 00 00 00 00 00 00 00 00 00 ...
T3D94 823:575.101   CPU_WriteMem(28 bytes @ 0xE0001000)
T3D94 823:575.781 - 0.726ms returns 0x1C
T3D94 823:575.804 JLINK_Halt()
T3D94 823:575.816 - 0.018ms returns 0x00
T3D94 823:575.835 JLINK_IsHalted()
T3D94 823:575.846 - 0.015ms returns TRUE
T3D94 823:579.552 JLINK_WriteMem(0x20000000, 0x418 Bytes, ...)
T3D94 823:579.570   Data:  00 BE 0A E0 0D 78 2D 06 68 40 08 24 40 00 00 D3 ...
T3D94 823:580.036   CPU_WriteMem(1048 bytes @ 0x20000000)
T3D94 823:583.884 - 4.345ms returns 0x418
T3D94 823:583.942 JLINK_HasError()
T3D94 823:583.963 JLINK_WriteReg(R0, 0x08000000)
T3D94 823:583.975 - 0.015ms returns 0
T3D94 823:583.985 JLINK_WriteReg(R1, 0x017D7840)
T3D94 823:583.994 - 0.012ms returns 0
T3D94 823:584.003 JLINK_WriteReg(R2, 0x00000001)
T3D94 823:584.011 - 0.012ms returns 0
T3D94 823:584.021 JLINK_WriteReg(R3, 0x00000000)
T3D94 823:584.029 - 0.011ms returns 0
T3D94 823:584.038 JLINK_WriteReg(R4, 0x00000000)
T3D94 823:584.046 - 0.011ms returns 0
T3D94 823:584.056 JLINK_WriteReg(R5, 0x00000000)
T3D94 823:584.063 - 0.011ms returns 0
T3D94 823:584.073 JLINK_WriteReg(R6, 0x00000000)
T3D94 823:584.081 - 0.011ms returns 0
T3D94 823:584.090 JLINK_WriteReg(R7, 0x00000000)
T3D94 823:584.098 - 0.013ms returns 0
T3D94 823:584.109 JLINK_WriteReg(R8, 0x00000000)
T3D94 823:584.117 - 0.012ms returns 0
T3D94 823:584.127 JLINK_WriteReg(R9, 0x20000414)
T3D94 823:584.135 - 0.011ms returns 0
T3D94 823:584.144 JLINK_WriteReg(R10, 0x00000000)
T3D94 823:584.152 - 0.011ms returns 0
T3D94 823:584.161 JLINK_WriteReg(R11, 0x00000000)
T3D94 823:584.169 - 0.011ms returns 0
T3D94 823:584.179 JLINK_WriteReg(R12, 0x00000000)
T3D94 823:584.187 - 0.012ms returns 0
T3D94 823:584.196 JLINK_WriteReg(R13 (SP), 0x20008000)
T3D94 823:584.205 - 0.013ms returns 0
T3D94 823:584.215 JLINK_WriteReg(R14, 0x20000001)
T3D94 823:584.223 - 0.012ms returns 0
T3D94 823:584.232 JLINK_WriteReg(R15 (PC), 0x2000003E)
T3D94 823:584.240 - 0.012ms returns 0
T3D94 823:584.250 JLINK_WriteReg(XPSR, 0x01000000)
T3D94 823:584.258 - 0.011ms returns 0
T3D94 823:584.267 JLINK_WriteReg(MSP, 0x20008000)
T3D94 823:584.275 - 0.011ms returns 0
T3D94 823:584.285 JLINK_WriteReg(PSP, 0x20008000)
T3D94 823:584.292 - 0.011ms returns 0
T3D94 823:584.302 JLINK_WriteReg(CFBP, 0x00000000)
T3D94 823:584.310 - 0.011ms returns 0
T3D94 823:584.322 JLINK_SetBPEx(Addr = 0x20000000, Type = 0xFFFFFFF2)
T3D94 823:584.332 - 0.014ms returns 0x00000001
T3D94 823:584.344 JLINK_Go()
T3D94 823:584.358   CPU_WriteMem(4 bytes @ 0xE0002000)
T3D94 823:584.889   CPU_ReadMem(4 bytes @ 0xE0001000)
T3D94 823:585.377   CPU_WriteMem(4 bytes @ 0xE0002008)
T3D94 823:585.399   CPU_WriteMem(4 bytes @ 0xE000200C)
T3D94 823:585.417   CPU_WriteMem(4 bytes @ 0xE0002010)
T3D94 823:585.434   CPU_WriteMem(4 bytes @ 0xE0002014)
T3D94 823:585.447   CPU_WriteMem(4 bytes @ 0xE0002018)
T3D94 823:585.458   CPU_WriteMem(4 bytes @ 0xE000201C)
T3D94 823:585.469   CPU_WriteMem(4 bytes @ 0xE0002020)
T3D94 823:585.481   CPU_WriteMem(4 bytes @ 0xE0002024)
T3D94 823:587.009   CPU_WriteMem(4 bytes @ 0xE0001004)
T3D94 823:589.879 - 5.545ms
T3D94 823:589.899 JLINK_IsHalted()
T3D94 823:592.246 - 2.359ms returns TRUE
T3D94 823:592.288 JLINK_ReadReg(R15 (PC))
T3D94 823:592.303 - 0.018ms returns 0x20000000
T3D94 823:592.318 JLINK_ClrBPEx(BPHandle = 0x00000001)
T3D94 823:592.328 - 0.014ms returns 0x00
T3D94 823:592.399 JLINK_ReadReg(R0)
T3D94 823:592.417 - 0.024ms returns 0x00000000
T3D94 823:592.834 JLINK_HasError()
T3D94 823:592.850 JLINK_WriteReg(R0, 0x08000000)
T3D94 823:592.860 - 0.014ms returns 0
T3D94 823:592.870 JLINK_WriteReg(R1, 0x00020000)
T3D94 823:592.878 - 0.012ms returns 0
T3D94 823:592.889 JLINK_WriteReg(R2, 0x000000FF)
T3D94 823:592.897 - 0.012ms returns 0
T3D94 823:592.974 JLINK_WriteReg(R3, 0x00000000)
T3D94 823:592.989 - 0.018ms returns 0
T3D94 823:592.999 JLINK_WriteReg(R4, 0x00000000)
T3D94 823:593.007 - 0.012ms returns 0
T3D94 823:593.017 JLINK_WriteReg(R5, 0x00000000)
T3D94 823:593.025 - 0.012ms returns 0
T3D94 823:593.035 JLINK_WriteReg(R6, 0x00000000)
T3D94 823:593.043 - 0.012ms returns 0
T3D94 823:593.053 JLINK_WriteReg(R7, 0x00000000)
T3D94 823:593.061 - 0.012ms returns 0
T3D94 823:593.071 JLINK_WriteReg(R8, 0x00000000)
T3D94 823:593.079 - 0.012ms returns 0
T3D94 823:593.089 JLINK_WriteReg(R9, 0x20000414)
T3D94 823:593.099 - 0.014ms returns 0
T3D94 823:593.109 JLINK_WriteReg(R10, 0x00000000)
T3D94 823:593.117 - 0.012ms returns 0
T3D94 823:593.127 JLINK_WriteReg(R11, 0x00000000)
T3D94 823:593.136 - 0.012ms returns 0
T3D94 823:593.145 JLINK_WriteReg(R12, 0x00000000)
T3D94 823:593.154 - 0.012ms returns 0
T3D94 823:593.163 JLINK_WriteReg(R13 (SP), 0x20008000)
T3D94 823:593.172 - 0.013ms returns 0
T3D94 823:593.182 JLINK_WriteReg(R14, 0x20000001)
T3D94 823:593.190 - 0.012ms returns 0
T3D94 823:593.200 JLINK_WriteReg(R15 (PC), 0x20000020)
T3D94 823:593.208 - 0.012ms returns 0
T3D94 823:593.218 JLINK_WriteReg(XPSR, 0x01000000)
T3D94 823:593.226 - 0.012ms returns 0
T3D94 823:593.236 JLINK_WriteReg(MSP, 0x20008000)
T3D94 823:593.244 - 0.012ms returns 0
T3D94 823:593.254 JLINK_WriteReg(PSP, 0x20008000)
T3D94 823:593.262 - 0.012ms returns 0
T3D94 823:593.272 JLINK_WriteReg(CFBP, 0x00000000)
T3D94 823:593.280 - 0.012ms returns 0
T3D94 823:593.290 JLINK_SetBPEx(Addr = 0x20000000, Type = 0xFFFFFFF2)
T3D94 823:593.300 - 0.014ms returns 0x00000002
T3D94 823:593.310 JLINK_Go()
T3D94 823:593.322   CPU_WriteMem(4 bytes @ 0xE0002000)
T3D94 823:593.884   CPU_ReadMem(4 bytes @ 0xE0001000)
T3D94 823:596.618 - 3.319ms
T3D94 823:596.638 JLINK_IsHalted()
T3D94 823:597.108 - 0.489ms returns FALSE
T3D94 823:597.135 JLINK_HasError()
T3D94 823:615.094 JLINK_IsHalted()
T3D94 823:617.403 - 2.322ms returns TRUE
T3D94 823:617.425 JLINK_ReadReg(R15 (PC))
T3D94 823:617.436 - 0.014ms returns 0x20000000
T3D94 823:617.446 JLINK_ClrBPEx(BPHandle = 0x00000002)
T3D94 823:617.455 - 0.013ms returns 0x00
T3D94 823:617.465 JLINK_ReadReg(R0)
T3D94 823:617.473 - 0.012ms returns 0x00000000
T3D94 823:618.549 JLINK_HasError()
T3D94 823:618.566 JLINK_WriteReg(R0, 0x00000001)
T3D94 823:618.577 - 0.015ms returns 0
T3D94 823:618.587 JLINK_WriteReg(R1, 0x00020000)
T3D94 823:618.595 - 0.012ms returns 0
T3D94 823:618.605 JLINK_WriteReg(R2, 0x000000FF)
T3D94 823:618.613 - 0.011ms returns 0
T3D94 823:618.622 JLINK_WriteReg(R3, 0x00000000)
T3D94 823:618.630 - 0.011ms returns 0
T3D94 823:618.640 JLINK_WriteReg(R4, 0x00000000)
T3D94 823:618.648 - 0.011ms returns 0
T3D94 823:618.657 JLINK_WriteReg(R5, 0x00000000)
T3D94 823:618.665 - 0.011ms returns 0
T3D94 823:618.674 JLINK_WriteReg(R6, 0x00000000)
T3D94 823:618.682 - 0.011ms returns 0
T3D94 823:618.692 JLINK_WriteReg(R7, 0x00000000)
T3D94 823:618.699 - 0.011ms returns 0
T3D94 823:618.709 JLINK_WriteReg(R8, 0x00000000)
T3D94 823:618.717 - 0.012ms returns 0
T3D94 823:618.727 JLINK_WriteReg(R9, 0x20000414)
T3D94 823:618.734 - 0.011ms returns 0
T3D94 823:618.744 JLINK_WriteReg(R10, 0x00000000)
T3D94 823:618.752 - 0.012ms returns 0
T3D94 823:618.762 JLINK_WriteReg(R11, 0x00000000)
T3D94 823:618.770 - 0.012ms returns 0
T3D94 823:618.779 JLINK_WriteReg(R12, 0x00000000)
T3D94 823:618.787 - 0.011ms returns 0
T3D94 823:618.796 JLINK_WriteReg(R13 (SP), 0x20008000)
T3D94 823:618.805 - 0.012ms returns 0
T3D94 823:618.815 JLINK_WriteReg(R14, 0x20000001)
T3D94 823:618.823 - 0.011ms returns 0
T3D94 823:618.832 JLINK_WriteReg(R15 (PC), 0x2000009C)
T3D94 823:618.840 - 0.012ms returns 0
T3D94 823:618.850 JLINK_WriteReg(XPSR, 0x01000000)
T3D94 823:618.858 - 0.012ms returns 0
T3D94 823:618.867 JLINK_WriteReg(MSP, 0x20008000)
T3D94 823:618.875 - 0.012ms returns 0
T3D94 823:618.885 JLINK_WriteReg(PSP, 0x20008000)
T3D94 823:618.893 - 0.012ms returns 0
T3D94 823:618.902 JLINK_WriteReg(CFBP, 0x00000000)
T3D94 823:618.919 - 0.025ms returns 0
T3D94 823:618.934 JLINK_SetBPEx(Addr = 0x20000000, Type = 0xFFFFFFF2)
T3D94 823:618.944 - 0.014ms returns 0x00000003
T3D94 823:618.954 JLINK_Go()
T3D94 823:618.970   CPU_WriteMem(4 bytes @ 0xE0002000)
T3D94 823:619.389   CPU_ReadMem(4 bytes @ 0xE0001000)
T3D94 823:622.231 - 3.295ms
T3D94 823:622.257 JLINK_IsHalted()
T3D94 823:624.628 - 2.379ms returns TRUE
T3D94 823:624.643 JLINK_ReadReg(R15 (PC))
T3D94 823:624.653 - 0.013ms returns 0x20000000
T3D94 823:624.662 JLINK_ClrBPEx(BPHandle = 0x00000003)
T3D94 823:624.671 - 0.012ms returns 0x00
T3D94 823:624.680 JLINK_ReadReg(R0)
T3D94 823:624.688 - 0.011ms returns 0x00000000
T3D94 823:685.696 JLINK_WriteMem(0x20000000, 0x418 Bytes, ...)
T3D94 823:685.717   Data:  00 BE 0A E0 0D 78 2D 06 68 40 08 24 40 00 00 D3 ...
T3D94 823:685.747   CPU_WriteMem(1048 bytes @ 0x20000000)
T3D94 823:689.656 - 3.972ms returns 0x418
T3D94 823:689.707 JLINK_HasError()
T3D94 823:689.722 JLINK_WriteReg(R0, 0x08000000)
T3D94 823:689.733 - 0.015ms returns 0
T3D94 823:689.743 JLINK_WriteReg(R1, 0x017D7840)
T3D94 823:689.752 - 0.012ms returns 0
T3D94 823:689.761 JLINK_WriteReg(R2, 0x00000002)
T3D94 823:689.769 - 0.012ms returns 0
T3D94 823:689.779 JLINK_WriteReg(R3, 0x00000000)
T3D94 823:689.787 - 0.012ms returns 0
T3D94 823:689.796 JLINK_WriteReg(R4, 0x00000000)
T3D94 823:689.804 - 0.012ms returns 0
T3D94 823:689.814 JLINK_WriteReg(R5, 0x00000000)
T3D94 823:689.822 - 0.012ms returns 0
T3D94 823:689.831 JLINK_WriteReg(R6, 0x00000000)
T3D94 823:689.839 - 0.011ms returns 0
T3D94 823:689.849 JLINK_WriteReg(R7, 0x00000000)
T3D94 823:689.857 - 0.012ms returns 0
T3D94 823:689.866 JLINK_WriteReg(R8, 0x00000000)
T3D94 823:689.874 - 0.012ms returns 0
T3D94 823:689.884 JLINK_WriteReg(R9, 0x20000414)
T3D94 823:689.892 - 0.011ms returns 0
T3D94 823:689.901 JLINK_WriteReg(R10, 0x00000000)
T3D94 823:689.909 - 0.012ms returns 0
T3D94 823:689.919 JLINK_WriteReg(R11, 0x00000000)
T3D94 823:689.927 - 0.011ms returns 0
T3D94 823:689.936 JLINK_WriteReg(R12, 0x00000000)
T3D94 823:689.944 - 0.012ms returns 0
T3D94 823:689.954 JLINK_WriteReg(R13 (SP), 0x20008000)
T3D94 823:689.962 - 0.012ms returns 0
T3D94 823:689.972 JLINK_WriteReg(R14, 0x20000001)
T3D94 823:689.980 - 0.011ms returns 0
T3D94 823:689.989 JLINK_WriteReg(R15 (PC), 0x2000003E)
T3D94 823:689.997 - 0.013ms returns 0
T3D94 823:690.008 JLINK_WriteReg(XPSR, 0x01000000)
T3D94 823:690.017 - 0.012ms returns 0
T3D94 823:690.026 JLINK_WriteReg(MSP, 0x20008000)
T3D94 823:690.034 - 0.012ms returns 0
T3D94 823:690.043 JLINK_WriteReg(PSP, 0x20008000)
T3D94 823:690.051 - 0.012ms returns 0
T3D94 823:690.061 JLINK_WriteReg(CFBP, 0x00000000)
T3D94 823:690.069 - 0.012ms returns 0
T3D94 823:690.079 JLINK_SetBPEx(Addr = 0x20000000, Type = 0xFFFFFFF2)
T3D94 823:690.089 - 0.014ms returns 0x00000004
T3D94 823:690.099 JLINK_Go()
T3D94 823:690.113   CPU_WriteMem(4 bytes @ 0xE0002000)
T3D94 823:690.632   CPU_ReadMem(4 bytes @ 0xE0001000)
T3D94 823:693.659 - 3.569ms
T3D94 823:693.679 JLINK_IsHalted()
T3D94 823:696.031 - 2.365ms returns TRUE
T3D94 823:696.080 JLINK_ReadReg(R15 (PC))
T3D94 823:696.093 - 0.016ms returns 0x20000000
T3D94 823:696.104 JLINK_ClrBPEx(BPHandle = 0x00000004)
T3D94 823:696.113 - 0.013ms returns 0x00
T3D94 823:696.124 JLINK_ReadReg(R0)
T3D94 823:696.133 - 0.012ms returns 0x00000000
T3D94 823:696.587 JLINK_WriteMem(0x20000418, 0x3E8 Bytes, ...)
T3D94 823:696.602   Data:  90 0C 07 24 AD 02 00 08 1B 75 00 08 0D 69 00 08 ...
T3D94 823:696.625   CPU_WriteMem(1000 bytes @ 0x20000418)
T3D94 823:700.233 - 3.657ms returns 0x3E8
T3D94 823:700.255 JLINK_WriteMem(0x20000800, 0x18 Bytes, ...)
T3D94 823:700.269   Data:  20 03 20 FA 03 F3 19 43 90 40 70 47 20 2A 04 DB ...
T3D94 823:700.292   CPU_WriteMem(24 bytes @ 0x20000800)
T3D94 823:700.858 - 0.612ms returns 0x18
T3D94 823:700.879 JLINK_HasError()
T3D94 823:700.895 JLINK_WriteReg(R0, 0x08000000)
T3D94 823:700.909 - 0.020ms returns 0
T3D94 823:700.923 JLINK_WriteReg(R1, 0x00000400)
T3D94 823:700.932 - 0.019ms returns 0
T3D94 823:700.953 JLINK_WriteReg(R2, 0x20000418)
T3D94 823:700.962 - 0.013ms returns 0
T3D94 823:700.972 JLINK_WriteReg(R3, 0x00000000)
T3D94 823:700.980 - 0.012ms returns 0
T3D94 823:700.992 JLINK_WriteReg(R4, 0x00000000)
T3D94 823:701.000 - 0.012ms returns 0
T3D94 823:701.010 JLINK_WriteReg(R5, 0x00000000)
T3D94 823:701.019 - 0.012ms returns 0
T3D94 823:701.028 JLINK_WriteReg(R6, 0x00000000)
T3D94 823:701.037 - 0.012ms returns 0
T3D94 823:701.046 JLINK_WriteReg(R7, 0x00000000)
T3D94 823:701.055 - 0.012ms returns 0
T3D94 823:701.064 JLINK_WriteReg(R8, 0x00000000)
T3D94 823:701.073 - 0.012ms returns 0
T3D94 823:701.082 JLINK_WriteReg(R9, 0x20000414)
T3D94 823:701.091 - 0.012ms returns 0
T3D94 823:701.100 JLINK_WriteReg(R10, 0x00000000)
T3D94 823:701.109 - 0.012ms returns 0
T3D94 823:701.118 JLINK_WriteReg(R11, 0x00000000)
T3D94 823:701.127 - 0.012ms returns 0
T3D94 823:701.136 JLINK_WriteReg(R12, 0x00000000)
T3D94 823:701.145 - 0.012ms returns 0
T3D94 823:701.155 JLINK_WriteReg(R13 (SP), 0x20008000)
T3D94 823:701.163 - 0.012ms returns 0
T3D94 823:701.173 JLINK_WriteReg(R14, 0x20000001)
T3D94 823:701.181 - 0.012ms returns 0
T3D94 823:701.191 JLINK_WriteReg(R15 (PC), 0x2000029A)
T3D94 823:701.200 - 0.012ms returns 0
T3D94 823:701.209 JLINK_WriteReg(XPSR, 0x01000000)
T3D94 823:701.218 - 0.012ms returns 0
T3D94 823:701.228 JLINK_WriteReg(MSP, 0x20008000)
T3D94 823:701.236 - 0.012ms returns 0
T3D94 823:701.245 JLINK_WriteReg(PSP, 0x20008000)
T3D94 823:701.254 - 0.012ms returns 0
T3D94 823:701.263 JLINK_WriteReg(CFBP, 0x00000000)
T3D94 823:701.272 - 0.012ms returns 0
T3D94 823:701.282 JLINK_SetBPEx(Addr = 0x20000000, Type = 0xFFFFFFF2)
T3D94 823:701.292 - 0.014ms returns 0x00000005
T3D94 823:701.302 JLINK_Go()
T3D94 823:701.315   CPU_WriteMem(4 bytes @ 0xE0002000)
T3D94 823:701.882   CPU_ReadMem(4 bytes @ 0xE0001000)
T3D94 823:704.752 - 3.459ms
T3D94 823:704.772 JLINK_IsHalted()
T3D94 823:705.230 - 0.467ms returns FALSE
T3D94 823:705.249 JLINK_HasError()
T3D94 823:711.011 JLINK_IsHalted()
T3D94 823:711.528 - 0.536ms returns FALSE
T3D94 823:711.558 JLINK_HasError()
T3D94 823:713.052 JLINK_IsHalted()
T3D94 823:715.282 - 2.241ms returns TRUE
T3D94 823:715.304 JLINK_ReadReg(R15 (PC))
T3D94 823:715.319 - 0.020ms returns 0x20000000
T3D94 823:715.332 JLINK_ClrBPEx(BPHandle = 0x00000005)
T3D94 823:715.341 - 0.014ms returns 0x00
T3D94 823:715.352 JLINK_ReadReg(R0)
T3D94 823:715.360 - 0.012ms returns 0x00000000
T3D94 823:716.030 JLINK_WriteMem(0x20000418, 0x3E8 Bytes, ...)
T3D94 823:716.045   Data:  70 47 21 FA 02 F3 D0 40 C2 F1 20 02 91 40 08 43 ...
T3D94 823:716.067   CPU_WriteMem(1000 bytes @ 0x20000418)
T3D94 823:719.643 - 3.623ms returns 0x3E8
T3D94 823:719.663 JLINK_WriteMem(0x20000800, 0x18 Bytes, ...)
T3D94 823:719.676   Data:  2D 00 00 24 3B 00 00 24 38 00 00 24 A2 00 00 24 ...
T3D94 823:719.699   CPU_WriteMem(24 bytes @ 0x20000800)
T3D94 823:720.260 - 0.605ms returns 0x18
T3D94 823:720.279 JLINK_HasError()
T3D94 823:720.294 JLINK_WriteReg(R0, 0x08000400)
T3D94 823:720.307 - 0.019ms returns 0
T3D94 823:720.321 JLINK_WriteReg(R1, 0x00000400)
T3D94 823:720.330 - 0.013ms returns 0
T3D94 823:720.339 JLINK_WriteReg(R2, 0x20000418)
T3D94 823:720.347 - 0.011ms returns 0
T3D94 823:720.357 JLINK_WriteReg(R3, 0x00000000)
T3D94 823:720.364 - 0.011ms returns 0
T3D94 823:720.374 JLINK_WriteReg(R4, 0x00000000)
T3D94 823:720.381 - 0.011ms returns 0
T3D94 823:720.390 JLINK_WriteReg(R5, 0x00000000)
T3D94 823:720.398 - 0.011ms returns 0
T3D94 823:720.407 JLINK_WriteReg(R6, 0x00000000)
T3D94 823:720.415 - 0.011ms returns 0
T3D94 823:720.424 JLINK_WriteReg(R7, 0x00000000)
T3D94 823:720.432 - 0.011ms returns 0
T3D94 823:720.441 JLINK_WriteReg(R8, 0x00000000)
T3D94 823:720.449 - 0.011ms returns 0
T3D94 823:720.458 JLINK_WriteReg(R9, 0x20000414)
T3D94 823:720.466 - 0.011ms returns 0
T3D94 823:720.475 JLINK_WriteReg(R10, 0x00000000)
T3D94 823:720.483 - 0.011ms returns 0
T3D94 823:720.492 JLINK_WriteReg(R11, 0x00000000)
T3D94 823:720.500 - 0.011ms returns 0
T3D94 823:720.515 JLINK_WriteReg(R12, 0x00000000)
T3D94 823:720.528 - 0.016ms returns 0
T3D94 823:720.538 JLINK_WriteReg(R13 (SP), 0x20008000)
T3D94 823:720.546 - 0.012ms returns 0
T3D94 823:720.555 JLINK_WriteReg(R14, 0x20000001)
T3D94 823:720.563 - 0.011ms returns 0
T3D94 823:720.572 JLINK_WriteReg(R15 (PC), 0x2000029A)
T3D94 823:720.580 - 0.011ms returns 0
T3D94 823:720.589 JLINK_WriteReg(XPSR, 0x01000000)
T3D94 823:720.597 - 0.011ms returns 0
T3D94 823:720.606 JLINK_WriteReg(MSP, 0x20008000)
T3D94 823:720.614 - 0.011ms returns 0
T3D94 823:720.623 JLINK_WriteReg(PSP, 0x20008000)
T3D94 823:720.630 - 0.011ms returns 0
T3D94 823:720.639 JLINK_WriteReg(CFBP, 0x00000000)
T3D94 823:720.647 - 0.011ms returns 0
T3D94 823:720.657 JLINK_SetBPEx(Addr = 0x20000000, Type = 0xFFFFFFF2)
T3D94 823:720.666 - 0.013ms returns 0x00000006
T3D94 823:720.675 JLINK_Go()
T3D94 823:720.687   CPU_WriteMem(4 bytes @ 0xE0002000)
T3D94 823:721.268   CPU_ReadMem(4 bytes @ 0xE0001000)
T3D94 823:724.385 - 3.718ms
T3D94 823:724.407 JLINK_IsHalted()
T3D94 823:725.008 - 0.610ms returns FALSE
T3D94 823:725.030 JLINK_HasError()
T3D94 823:726.999 JLINK_IsHalted()
T3D94 823:727.634 - 0.643ms returns FALSE
T3D94 823:727.652 JLINK_HasError()
T3D94 823:728.998 JLINK_IsHalted()
T3D94 823:729.509 - 0.519ms returns FALSE
T3D94 823:729.527 JLINK_HasError()
T3D94 823:730.974 JLINK_IsHalted()
T3D94 823:731.474 - 0.518ms returns FALSE
T3D94 823:731.509 JLINK_HasError()
T3D94 823:732.974 JLINK_IsHalted()
T3D94 823:735.254 - 2.301ms returns TRUE
T3D94 823:735.287 JLINK_ReadReg(R15 (PC))
T3D94 823:735.299 - 0.017ms returns 0x20000000
T3D94 823:735.310 JLINK_ClrBPEx(BPHandle = 0x00000006)
T3D94 823:735.320 - 0.014ms returns 0x00
T3D94 823:735.331 JLINK_ReadReg(R0)
T3D94 823:735.340 - 0.013ms returns 0x00000000
T3D94 823:736.103 JLINK_WriteMem(0x20000418, 0x3E8 Bytes, ...)
T3D94 823:736.121   Data:  3A 00 00 24 3C 00 00 24 28 00 00 24 A6 00 00 24 ...
T3D94 823:736.146   CPU_WriteMem(1000 bytes @ 0x20000418)
T3D94 823:739.808 - 3.721ms returns 0x3E8
T3D94 823:739.837 JLINK_WriteMem(0x20000800, 0x18 Bytes, ...)
T3D94 823:739.850   Data:  0B F1 78 0B 85 6D 0E F1 90 0E BC 42 6D D0 64 45 ...
T3D94 823:739.875   CPU_WriteMem(24 bytes @ 0x20000800)
T3D94 823:740.505 - 0.677ms returns 0x18
T3D94 823:740.525 JLINK_HasError()
T3D94 823:740.540 JLINK_WriteReg(R0, 0x08000800)
T3D94 823:740.554 - 0.020ms returns 0
T3D94 823:740.568 JLINK_WriteReg(R1, 0x00000400)
T3D94 823:740.585 - 0.021ms returns 0
T3D94 823:740.595 JLINK_WriteReg(R2, 0x20000418)
T3D94 823:740.603 - 0.012ms returns 0
T3D94 823:740.613 JLINK_WriteReg(R3, 0x00000000)
T3D94 823:740.621 - 0.012ms returns 0
T3D94 823:740.631 JLINK_WriteReg(R4, 0x00000000)
T3D94 823:740.639 - 0.012ms returns 0
T3D94 823:740.649 JLINK_WriteReg(R5, 0x00000000)
T3D94 823:740.657 - 0.012ms returns 0
T3D94 823:740.667 JLINK_WriteReg(R6, 0x00000000)
T3D94 823:740.675 - 0.012ms returns 0
T3D94 823:740.685 JLINK_WriteReg(R7, 0x00000000)
T3D94 823:740.693 - 0.012ms returns 0
T3D94 823:740.703 JLINK_WriteReg(R8, 0x00000000)
T3D94 823:740.711 - 0.012ms returns 0
T3D94 823:740.721 JLINK_WriteReg(R9, 0x20000414)
T3D94 823:740.729 - 0.012ms returns 0
T3D94 823:740.739 JLINK_WriteReg(R10, 0x00000000)
T3D94 823:740.747 - 0.012ms returns 0
T3D94 823:740.757 JLINK_WriteReg(R11, 0x00000000)
T3D94 823:740.765 - 0.012ms returns 0
T3D94 823:740.775 JLINK_WriteReg(R12, 0x00000000)
T3D94 823:740.783 - 0.012ms returns 0
T3D94 823:740.793 JLINK_WriteReg(R13 (SP), 0x20008000)
T3D94 823:740.802 - 0.013ms returns 0
T3D94 823:740.812 JLINK_WriteReg(R14, 0x20000001)
T3D94 823:740.820 - 0.012ms returns 0
T3D94 823:740.830 JLINK_WriteReg(R15 (PC), 0x2000029A)
T3D94 823:740.838 - 0.012ms returns 0
T3D94 823:740.848 JLINK_WriteReg(XPSR, 0x01000000)
T3D94 823:740.856 - 0.012ms returns 0
T3D94 823:740.866 JLINK_WriteReg(MSP, 0x20008000)
T3D94 823:740.874 - 0.012ms returns 0
T3D94 823:740.884 JLINK_WriteReg(PSP, 0x20008000)
T3D94 823:740.892 - 0.012ms returns 0
T3D94 823:740.902 JLINK_WriteReg(CFBP, 0x00000000)
T3D94 823:740.985 - 0.087ms returns 0
T3D94 823:740.996 JLINK_SetBPEx(Addr = 0x20000000, Type = 0xFFFFFFF2)
T3D94 823:741.007 - 0.014ms returns 0x00000007
T3D94 823:741.017 JLINK_Go()
T3D94 823:741.031   CPU_WriteMem(4 bytes @ 0xE0002000)
T3D94 823:741.575   CPU_ReadMem(4 bytes @ 0xE0001000)
T3D94 823:744.635 - 3.626ms
T3D94 823:744.654 JLINK_IsHalted()
T3D94 823:745.129 - 0.490ms returns FALSE
T3D94 823:745.155 JLINK_HasError()
T3D94 823:746.964 JLINK_IsHalted()
T3D94 823:747.502 - 0.548ms returns FALSE
T3D94 823:747.524 JLINK_HasError()
T3D94 823:748.979 JLINK_IsHalted()
T3D94 823:749.500 - 0.531ms returns FALSE
T3D94 823:749.520 JLINK_HasError()
T3D94 823:750.967 JLINK_IsHalted()
T3D94 823:751.336 - 0.385ms returns FALSE
T3D94 823:751.355 JLINK_HasError()
T3D94 823:752.972 JLINK_IsHalted()
T3D94 823:755.394 - 2.431ms returns TRUE
T3D94 823:755.414 JLINK_ReadReg(R15 (PC))
T3D94 823:755.429 - 0.020ms returns 0x20000000
T3D94 823:755.442 JLINK_ClrBPEx(BPHandle = 0x00000007)
T3D94 823:755.452 - 0.013ms returns 0x00
T3D94 823:755.462 JLINK_ReadReg(R0)
T3D94 823:755.470 - 0.012ms returns 0x00000000
T3D94 823:756.145 JLINK_WriteMem(0x20000418, 0x3E8 Bytes, ...)
T3D94 823:756.159   Data:  67 D0 54 45 65 D0 5C 45 63 D0 74 45 61 D0 DF F8 ...
T3D94 823:756.179   CPU_WriteMem(1000 bytes @ 0x20000418)
T3D94 823:759.885 - 3.748ms returns 0x3E8
T3D94 823:759.903 JLINK_WriteMem(0x20000800, 0x18 Bytes, ...)
T3D94 823:759.916   Data:  0C 00 90 60 D0 68 40 F0 80 60 D0 60 08 78 10 F0 ...
T3D94 823:759.947   CPU_WriteMem(24 bytes @ 0x20000800)
T3D94 823:760.511 - 0.616ms returns 0x18
T3D94 823:760.529 JLINK_HasError()
T3D94 823:760.544 JLINK_WriteReg(R0, 0x08000C00)
T3D94 823:760.557 - 0.019ms returns 0
T3D94 823:760.570 JLINK_WriteReg(R1, 0x00000400)
T3D94 823:760.580 - 0.013ms returns 0
T3D94 823:760.589 JLINK_WriteReg(R2, 0x20000418)
T3D94 823:760.597 - 0.011ms returns 0
T3D94 823:760.606 JLINK_WriteReg(R3, 0x00000000)
T3D94 823:760.614 - 0.011ms returns 0
T3D94 823:760.623 JLINK_WriteReg(R4, 0x00000000)
T3D94 823:760.631 - 0.011ms returns 0
T3D94 823:760.640 JLINK_WriteReg(R5, 0x00000000)
T3D94 823:760.647 - 0.011ms returns 0
T3D94 823:760.657 JLINK_WriteReg(R6, 0x00000000)
T3D94 823:760.664 - 0.011ms returns 0
T3D94 823:760.673 JLINK_WriteReg(R7, 0x00000000)
T3D94 823:760.681 - 0.011ms returns 0
T3D94 823:760.690 JLINK_WriteReg(R8, 0x00000000)
T3D94 823:760.698 - 0.011ms returns 0
T3D94 823:760.707 JLINK_WriteReg(R9, 0x20000414)
T3D94 823:760.715 - 0.011ms returns 0
T3D94 823:760.725 JLINK_WriteReg(R10, 0x00000000)
T3D94 823:760.732 - 0.011ms returns 0
T3D94 823:760.741 JLINK_WriteReg(R11, 0x00000000)
T3D94 823:760.749 - 0.011ms returns 0
T3D94 823:760.758 JLINK_WriteReg(R12, 0x00000000)
T3D94 823:760.766 - 0.011ms returns 0
T3D94 823:760.775 JLINK_WriteReg(R13 (SP), 0x20008000)
T3D94 823:760.784 - 0.012ms returns 0
T3D94 823:760.793 JLINK_WriteReg(R14, 0x20000001)
T3D94 823:760.801 - 0.011ms returns 0
T3D94 823:760.810 JLINK_WriteReg(R15 (PC), 0x2000029A)
T3D94 823:760.818 - 0.011ms returns 0
T3D94 823:760.827 JLINK_WriteReg(XPSR, 0x01000000)
T3D94 823:760.835 - 0.011ms returns 0
T3D94 823:760.844 JLINK_WriteReg(MSP, 0x20008000)
T3D94 823:760.851 - 0.011ms returns 0
T3D94 823:760.861 JLINK_WriteReg(PSP, 0x20008000)
T3D94 823:760.868 - 0.011ms returns 0
T3D94 823:760.877 JLINK_WriteReg(CFBP, 0x00000000)
T3D94 823:760.885 - 0.011ms returns 0
T3D94 823:760.895 JLINK_SetBPEx(Addr = 0x20000000, Type = 0xFFFFFFF2)
T3D94 823:760.904 - 0.013ms returns 0x00000008
T3D94 823:760.913 JLINK_Go()
T3D94 823:760.925   CPU_WriteMem(4 bytes @ 0xE0002000)
T3D94 823:761.518   CPU_ReadMem(4 bytes @ 0xE0001000)
T3D94 823:764.623 - 3.720ms
T3D94 823:764.645 JLINK_IsHalted()
T3D94 823:765.105 - 0.470ms returns FALSE
T3D94 823:765.125 JLINK_HasError()
T3D94 823:766.958 JLINK_IsHalted()
T3D94 823:767.377 - 0.428ms returns FALSE
T3D94 823:767.396 JLINK_HasError()
T3D94 823:768.960 JLINK_IsHalted()
T3D94 823:769.629 - 0.677ms returns FALSE
T3D94 823:769.654 JLINK_HasError()
T3D94 823:770.960 JLINK_IsHalted()
T3D94 823:771.476 - 0.525ms returns FALSE
T3D94 823:771.495 JLINK_HasError()
T3D94 823:772.955 JLINK_IsHalted()
T3D94 823:775.244 - 2.298ms returns TRUE
T3D94 823:775.264 JLINK_ReadReg(R15 (PC))
T3D94 823:775.277 - 0.020ms returns 0x20000000
T3D94 823:775.292 JLINK_ClrBPEx(BPHandle = 0x00000008)
T3D94 823:775.301 - 0.013ms returns 0x00
T3D94 823:775.311 JLINK_ReadReg(R0)
T3D94 823:775.319 - 0.012ms returns 0x00000000
T3D94 823:775.924 JLINK_WriteMem(0x20000418, 0x3E8 Bytes, ...)
T3D94 823:775.938   Data:  80 40 D0 60 D0 68 40 F0 00 40 D0 60 5B 1C 04 2B ...
T3D94 823:775.957   CPU_WriteMem(1000 bytes @ 0x20000418)
T3D94 823:779.486 - 3.576ms returns 0x3E8
T3D94 823:779.515 JLINK_WriteMem(0x20000800, 0x18 Bytes, ...)
T3D94 823:779.530   Data:  04 42 13 43 02 68 14 6F 4F F6 0D 75 2C 40 1C 43 ...
T3D94 823:779.553   CPU_WriteMem(24 bytes @ 0x20000800)
T3D94 823:780.128 - 0.624ms returns 0x18
T3D94 823:780.153 JLINK_HasError()
T3D94 823:780.169 JLINK_WriteReg(R0, 0x08001000)
T3D94 823:780.184 - 0.020ms returns 0
T3D94 823:780.197 JLINK_WriteReg(R1, 0x00000400)
T3D94 823:780.206 - 0.013ms returns 0
T3D94 823:780.278 JLINK_WriteReg(R2, 0x20000418)
T3D94 823:780.295 - 0.024ms returns 0
T3D94 823:780.310 JLINK_WriteReg(R3, 0x00000000)
T3D94 823:780.323 - 0.019ms returns 0
T3D94 823:780.338 JLINK_WriteReg(R4, 0x00000000)
T3D94 823:780.348 - 0.014ms returns 0
T3D94 823:780.358 JLINK_WriteReg(R5, 0x00000000)
T3D94 823:780.366 - 0.012ms returns 0
T3D94 823:780.376 JLINK_WriteReg(R6, 0x00000000)
T3D94 823:780.384 - 0.012ms returns 0
T3D94 823:780.393 JLINK_WriteReg(R7, 0x00000000)
T3D94 823:780.402 - 0.012ms returns 0
T3D94 823:780.411 JLINK_WriteReg(R8, 0x00000000)
T3D94 823:780.420 - 0.012ms returns 0
T3D94 823:780.429 JLINK_WriteReg(R9, 0x20000414)
T3D94 823:780.438 - 0.012ms returns 0
T3D94 823:780.447 JLINK_WriteReg(R10, 0x00000000)
T3D94 823:780.456 - 0.012ms returns 0
T3D94 823:780.465 JLINK_WriteReg(R11, 0x00000000)
T3D94 823:780.474 - 0.012ms returns 0
T3D94 823:780.483 JLINK_WriteReg(R12, 0x00000000)
T3D94 823:780.492 - 0.012ms returns 0
T3D94 823:780.501 JLINK_WriteReg(R13 (SP), 0x20008000)
T3D94 823:780.510 - 0.013ms returns 0
T3D94 823:780.520 JLINK_WriteReg(R14, 0x20000001)
T3D94 823:780.528 - 0.012ms returns 0
T3D94 823:780.538 JLINK_WriteReg(R15 (PC), 0x2000029A)
T3D94 823:780.547 - 0.012ms returns 0
T3D94 823:780.556 JLINK_WriteReg(XPSR, 0x01000000)
T3D94 823:780.565 - 0.012ms returns 0
T3D94 823:780.574 JLINK_WriteReg(MSP, 0x20008000)
T3D94 823:780.583 - 0.012ms returns 0
T3D94 823:780.592 JLINK_WriteReg(PSP, 0x20008000)
T3D94 823:780.601 - 0.012ms returns 0
T3D94 823:780.610 JLINK_WriteReg(CFBP, 0x00000000)
T3D94 823:780.619 - 0.012ms returns 0
T3D94 823:780.629 JLINK_SetBPEx(Addr = 0x20000000, Type = 0xFFFFFFF2)
T3D94 823:780.640 - 0.014ms returns 0x00000009
T3D94 823:780.650 JLINK_Go()
T3D94 823:780.662   CPU_WriteMem(4 bytes @ 0xE0002000)
T3D94 823:781.113   CPU_ReadMem(4 bytes @ 0xE0001000)
T3D94 823:783.877 - 3.237ms
T3D94 823:783.897 JLINK_IsHalted()
T3D94 823:784.381 - 0.492ms returns FALSE
T3D94 823:784.400 JLINK_HasError()
T3D94 823:786.942 JLINK_IsHalted()
T3D94 823:787.376 - 0.442ms returns FALSE
T3D94 823:787.395 JLINK_HasError()
T3D94 823:788.944 JLINK_IsHalted()
T3D94 823:789.376 - 0.441ms returns FALSE
T3D94 823:789.395 JLINK_HasError()
T3D94 823:790.952 JLINK_IsHalted()
T3D94 823:791.460 - 0.516ms returns FALSE
T3D94 823:791.477 JLINK_HasError()
T3D94 823:792.943 JLINK_IsHalted()
T3D94 823:795.372 - 2.442ms returns TRUE
T3D94 823:795.396 JLINK_ReadReg(R15 (PC))
T3D94 823:795.411 - 0.021ms returns 0x20000000
T3D94 823:795.424 JLINK_ClrBPEx(BPHandle = 0x00000009)
T3D94 823:795.434 - 0.013ms returns 0x00
T3D94 823:795.444 JLINK_ReadReg(R0)
T3D94 823:795.453 - 0.012ms returns 0x00000000
T3D94 823:796.104 JLINK_WriteMem(0x20000418, 0x3E8 Bytes, ...)
T3D94 823:796.119   Data:  56 20 42 EA 43 03 02 68 D2 F8 90 40 03 E0 2B E0 ...
T3D94 823:796.140   CPU_WriteMem(1000 bytes @ 0x20000418)
T3D94 823:799.876 - 3.781ms returns 0x3E8
T3D94 823:799.898 JLINK_WriteMem(0x20000800, 0x18 Bytes, ...)
T3D94 823:799.911   Data:  00 41 C1 66 20 68 05 F0 0B FB 00 28 73 D1 21 68 ...
T3D94 823:799.933   CPU_WriteMem(24 bytes @ 0x20000800)
T3D94 823:800.510 - 0.621ms returns 0x18
T3D94 823:800.530 JLINK_HasError()
T3D94 823:800.544 JLINK_WriteReg(R0, 0x08001400)
T3D94 823:800.557 - 0.019ms returns 0
T3D94 823:800.571 JLINK_WriteReg(R1, 0x00000400)
T3D94 823:800.580 - 0.013ms returns 0
T3D94 823:800.589 JLINK_WriteReg(R2, 0x20000418)
T3D94 823:800.597 - 0.011ms returns 0
T3D94 823:800.606 JLINK_WriteReg(R3, 0x00000000)
T3D94 823:800.614 - 0.011ms returns 0
T3D94 823:800.623 JLINK_WriteReg(R4, 0x00000000)
T3D94 823:800.631 - 0.011ms returns 0
T3D94 823:800.640 JLINK_WriteReg(R5, 0x00000000)
T3D94 823:800.648 - 0.011ms returns 0
T3D94 823:800.657 JLINK_WriteReg(R6, 0x00000000)
T3D94 823:800.665 - 0.011ms returns 0
T3D94 823:800.674 JLINK_WriteReg(R7, 0x00000000)
T3D94 823:800.682 - 0.011ms returns 0
T3D94 823:800.691 JLINK_WriteReg(R8, 0x00000000)
T3D94 823:800.699 - 0.011ms returns 0
T3D94 823:800.708 JLINK_WriteReg(R9, 0x20000414)
T3D94 823:800.716 - 0.011ms returns 0
T3D94 823:800.725 JLINK_WriteReg(R10, 0x00000000)
T3D94 823:800.733 - 0.011ms returns 0
T3D94 823:800.742 JLINK_WriteReg(R11, 0x00000000)
T3D94 823:800.750 - 0.011ms returns 0
T3D94 823:800.759 JLINK_WriteReg(R12, 0x00000000)
T3D94 823:800.767 - 0.011ms returns 0
T3D94 823:800.776 JLINK_WriteReg(R13 (SP), 0x20008000)
T3D94 823:800.785 - 0.012ms returns 0
T3D94 823:800.794 JLINK_WriteReg(R14, 0x20000001)
T3D94 823:800.802 - 0.011ms returns 0
T3D94 823:800.811 JLINK_WriteReg(R15 (PC), 0x2000029A)
T3D94 823:800.819 - 0.011ms returns 0
T3D94 823:800.828 JLINK_WriteReg(XPSR, 0x01000000)
T3D94 823:800.836 - 0.011ms returns 0
T3D94 823:800.845 JLINK_WriteReg(MSP, 0x20008000)
T3D94 823:800.853 - 0.011ms returns 0
T3D94 823:800.862 JLINK_WriteReg(PSP, 0x20008000)
T3D94 823:800.870 - 0.011ms returns 0
T3D94 823:800.879 JLINK_WriteReg(CFBP, 0x00000000)
T3D94 823:800.886 - 0.011ms returns 0
T3D94 823:800.897 JLINK_SetBPEx(Addr = 0x20000000, Type = 0xFFFFFFF2)
T3D94 823:800.923 - 0.030ms returns 0x0000000A
T3D94 823:800.934 JLINK_Go()
T3D94 823:800.946   CPU_WriteMem(4 bytes @ 0xE0002000)
T3D94 823:801.517   CPU_ReadMem(4 bytes @ 0xE0001000)
T3D94 823:804.634 - 3.716ms
T3D94 823:804.661 JLINK_IsHalted()
T3D94 823:805.252 - 0.606ms returns FALSE
T3D94 823:805.278 JLINK_HasError()
T3D94 823:806.926 JLINK_IsHalted()
T3D94 823:807.389 - 0.478ms returns FALSE
T3D94 823:807.415 JLINK_HasError()
T3D94 823:808.935 JLINK_IsHalted()
T3D94 823:809.390 - 0.470ms returns FALSE
T3D94 823:809.416 JLINK_HasError()
T3D94 823:810.916 JLINK_IsHalted()
T3D94 823:811.364 - 0.464ms returns FALSE
T3D94 823:811.391 JLINK_HasError()
T3D94 823:814.929 JLINK_IsHalted()
T3D94 823:817.311 - 2.392ms returns TRUE
T3D94 823:817.333 JLINK_ReadReg(R15 (PC))
T3D94 823:817.348 - 0.021ms returns 0x20000000
T3D94 823:817.361 JLINK_ClrBPEx(BPHandle = 0x0000000A)
T3D94 823:817.371 - 0.013ms returns 0x00
T3D94 823:817.381 JLINK_ReadReg(R0)
T3D94 823:817.389 - 0.012ms returns 0x00000000
T3D94 823:818.033 JLINK_WriteMem(0x20000418, 0x3E8 Bytes, ...)
T3D94 823:818.047   Data:  C0 F3 13 0C 23 EA 0C 03 02 F0 18 0C 7F 4A 22 FA ...
T3D94 823:818.069   CPU_WriteMem(1000 bytes @ 0x20000418)
T3D94 823:821.816 - 3.798ms returns 0x3E8
T3D94 823:821.842 JLINK_WriteMem(0x20000800, 0x18 Bytes, ...)
T3D94 823:821.854   Data:  01 46 C9 68 BA F1 00 0F 14 D0 8B 01 02 D5 8A B1 ...
T3D94 823:821.878   CPU_WriteMem(24 bytes @ 0x20000800)
T3D94 823:822.533 - 0.707ms returns 0x18
T3D94 823:822.560 JLINK_HasError()
T3D94 823:822.574 JLINK_WriteReg(R0, 0x08001800)
T3D94 823:822.585 - 0.015ms returns 0
T3D94 823:822.595 JLINK_WriteReg(R1, 0x00000400)
T3D94 823:822.603 - 0.011ms returns 0
T3D94 823:822.612 JLINK_WriteReg(R2, 0x20000418)
T3D94 823:822.620 - 0.011ms returns 0
T3D94 823:822.629 JLINK_WriteReg(R3, 0x00000000)
T3D94 823:822.644 - 0.022ms returns 0
T3D94 823:822.658 JLINK_WriteReg(R4, 0x00000000)
T3D94 823:822.666 - 0.011ms returns 0
T3D94 823:822.675 JLINK_WriteReg(R5, 0x00000000)
T3D94 823:822.683 - 0.011ms returns 0
T3D94 823:822.692 JLINK_WriteReg(R6, 0x00000000)
T3D94 823:822.700 - 0.011ms returns 0
T3D94 823:822.709 JLINK_WriteReg(R7, 0x00000000)
T3D94 823:822.717 - 0.011ms returns 0
T3D94 823:822.726 JLINK_WriteReg(R8, 0x00000000)
T3D94 823:822.734 - 0.011ms returns 0
T3D94 823:822.743 JLINK_WriteReg(R9, 0x20000414)
T3D94 823:822.751 - 0.011ms returns 0
T3D94 823:822.760 JLINK_WriteReg(R10, 0x00000000)
T3D94 823:822.768 - 0.011ms returns 0
T3D94 823:822.777 JLINK_WriteReg(R11, 0x00000000)
T3D94 823:822.784 - 0.011ms returns 0
T3D94 823:822.794 JLINK_WriteReg(R12, 0x00000000)
T3D94 823:822.801 - 0.011ms returns 0
T3D94 823:822.810 JLINK_WriteReg(R13 (SP), 0x20008000)
T3D94 823:822.819 - 0.012ms returns 0
T3D94 823:822.828 JLINK_WriteReg(R14, 0x20000001)
T3D94 823:822.836 - 0.011ms returns 0
T3D94 823:822.845 JLINK_WriteReg(R15 (PC), 0x2000029A)
T3D94 823:822.853 - 0.011ms returns 0
T3D94 823:822.862 JLINK_WriteReg(XPSR, 0x01000000)
T3D94 823:822.870 - 0.011ms returns 0
T3D94 823:822.881 JLINK_WriteReg(MSP, 0x20008000)
T3D94 823:822.905 - 0.028ms returns 0
T3D94 823:822.914 JLINK_WriteReg(PSP, 0x20008000)
T3D94 823:822.922 - 0.011ms returns 0
T3D94 823:822.931 JLINK_WriteReg(CFBP, 0x00000000)
T3D94 823:822.939 - 0.011ms returns 0
T3D94 823:822.949 JLINK_SetBPEx(Addr = 0x20000000, Type = 0xFFFFFFF2)
T3D94 823:822.958 - 0.013ms returns 0x0000000B
T3D94 823:822.968 JLINK_Go()
T3D94 823:822.979   CPU_WriteMem(4 bytes @ 0xE0002000)
T3D94 823:823.403   CPU_ReadMem(4 bytes @ 0xE0001000)
T3D94 823:826.642 - 3.690ms
T3D94 823:826.668 JLINK_IsHalted()
T3D94 823:827.133 - 0.480ms returns FALSE
T3D94 823:827.160 JLINK_HasError()
T3D94 823:828.905 JLINK_IsHalted()
T3D94 823:829.384 - 0.494ms returns FALSE
T3D94 823:829.411 JLINK_HasError()
T3D94 823:830.879 JLINK_IsHalted()
T3D94 823:831.353 - 0.483ms returns FALSE
T3D94 823:831.372 JLINK_HasError()
T3D94 823:832.927 JLINK_IsHalted()
T3D94 823:833.467 - 0.555ms returns FALSE
T3D94 823:833.493 JLINK_HasError()
T3D94 823:834.961 JLINK_IsHalted()
T3D94 823:837.451 - 2.505ms returns TRUE
T3D94 823:837.477 JLINK_ReadReg(R15 (PC))
T3D94 823:837.491 - 0.019ms returns 0x20000000
T3D94 823:837.502 JLINK_ClrBPEx(BPHandle = 0x0000000B)
T3D94 823:837.511 - 0.013ms returns 0x00
T3D94 823:837.521 JLINK_ReadReg(R0)
T3D94 823:837.529 - 0.011ms returns 0x00000000
T3D94 823:838.171 JLINK_WriteMem(0x20000418, 0x3E8 Bytes, ...)
T3D94 823:838.186   Data:  0C D5 89 02 0A D4 05 F0 FB F8 E8 B3 60 6D 40 F0 ...
T3D94 823:838.205   CPU_WriteMem(1000 bytes @ 0x20000418)
T3D94 823:841.923 - 3.763ms returns 0x3E8
T3D94 823:841.946 JLINK_WriteMem(0x20000800, 0x18 Bytes, ...)
T3D94 823:841.960   Data:  30 46 2F 94 01 F0 AC FF 3A 4C 39 48 20 60 09 20 ...
T3D94 823:841.982   CPU_WriteMem(24 bytes @ 0x20000800)
T3D94 823:842.466 - 0.533ms returns 0x18
T3D94 823:842.490 JLINK_HasError()
T3D94 823:842.501 JLINK_WriteReg(R0, 0x08001C00)
T3D94 823:842.512 - 0.015ms returns 0
T3D94 823:842.522 JLINK_WriteReg(R1, 0x00000400)
T3D94 823:842.531 - 0.012ms returns 0
T3D94 823:842.541 JLINK_WriteReg(R2, 0x20000418)
T3D94 823:842.549 - 0.012ms returns 0
T3D94 823:842.559 JLINK_WriteReg(R3, 0x00000000)
T3D94 823:842.567 - 0.012ms returns 0
T3D94 823:842.577 JLINK_WriteReg(R4, 0x00000000)
T3D94 823:842.585 - 0.012ms returns 0
T3D94 823:842.595 JLINK_WriteReg(R5, 0x00000000)
T3D94 823:842.604 - 0.012ms returns 0
T3D94 823:842.613 JLINK_WriteReg(R6, 0x00000000)
T3D94 823:842.622 - 0.012ms returns 0
T3D94 823:842.631 JLINK_WriteReg(R7, 0x00000000)
T3D94 823:842.640 - 0.012ms returns 0
T3D94 823:842.658 JLINK_WriteReg(R8, 0x00000000)
T3D94 823:842.666 - 0.020ms returns 0
T3D94 823:842.692 JLINK_WriteReg(R9, 0x20000414)
T3D94 823:842.700 - 0.012ms returns 0
T3D94 823:842.710 JLINK_WriteReg(R10, 0x00000000)
T3D94 823:842.718 - 0.012ms returns 0
T3D94 823:842.734 JLINK_WriteReg(R11, 0x00000000)
T3D94 823:842.764 - 0.034ms returns 0
T3D94 823:842.774 JLINK_WriteReg(R12, 0x00000000)
T3D94 823:842.782 - 0.012ms returns 0
T3D94 823:842.791 JLINK_WriteReg(R13 (SP), 0x20008000)
T3D94 823:842.800 - 0.012ms returns 0
T3D94 823:842.809 JLINK_WriteReg(R14, 0x20000001)
T3D94 823:842.834 - 0.028ms returns 0
T3D94 823:842.844 JLINK_WriteReg(R15 (PC), 0x2000029A)
T3D94 823:842.852 - 0.013ms returns 0
T3D94 823:842.863 JLINK_WriteReg(XPSR, 0x01000000)
T3D94 823:842.871 - 0.011ms returns 0
T3D94 823:842.881 JLINK_WriteReg(MSP, 0x20008000)
T3D94 823:842.897 - 0.020ms returns 0
T3D94 823:842.907 JLINK_WriteReg(PSP, 0x20008000)
T3D94 823:842.925 - 0.022ms returns 0
T3D94 823:842.935 JLINK_WriteReg(CFBP, 0x00000000)
T3D94 823:842.943 - 0.011ms returns 0
